LTspice 24.0.9 for Windows
Circuit: * C:\hoc\nam 4 ver 2\thiet ke mach VLSI\file ltspice\1232024\Draft1.asc
Start Time: Mon May 27 14:20:34 2024
solver = Normal
Maximum thread count: 12
tnom = 27
temp = 27
method = modified trap
Direct Newton iteration for .op point succeeded.
Semiconductor Device Operating Points:
                        --- Diodes ---
Name:    d:u1:1      d:u1:4
Model:    u1:x        u1:di
Id:     -3.87e-15   -4.52e-17
Vd:     -3.87e-03   -4.52e-08
Req:     1.00e-12    1.00e-09
CAP:     0.00e+00    0.00e+00

                        --- VDMOSFET Transistors ---
Name:        m:u1:1      m:u1:2
Model:        u1:n        u1:p
Id:          2.31e-03   -2.19e-03
Vgs:         3.87e-03    3.87e-03
Vds:         2.48e+00   -2.52e+00
Vth:        -3.00e-01    3.00e-01
Gm:          1.52e-02    1.48e-02
Gds:         0.00e+00    0.00e+00
Cgs:         0.00e+00    0.00e+00
Cgd:         0.00e+00    0.00e+00
Cbody:       0.00e+00    0.00e+00


Total elapsed time: 0.038 seconds.

